T4C10 1024:574 SEGGER J-Link V6.30h Log File (0000ms, 1489ms total)
T4C10 1024:574 DLL Compiled: Mar 16 2018 18:02:51 (0000ms, 1489ms total)
T4C10 1024:574 Logging started @ 2018-08-03 17:16 (0000ms, 1489ms total)
T4C10 1024:574 JLINK_SetWarnOutHandler(...) (0000ms, 1489ms total)
T4C10 1024:574 JLINK_OpenEx(...)
Firmware: J-Link V9 compiled Apr 20 2018 16:47:26
Hardware: V9.40
S/N: 59425868
Feature(s): RDI, GDB, FlashDL, FlashBP, JFlash, RDDI
TELNET listener socket opened on port 19021WEBSRV 
Starting webserver (0111ms, 1600ms total)
T4C10 1024:574 WEBSRV Webserver running on local port 19080 (0111ms, 1600ms total)
T4C10 1024:574   returns O.K. (0111ms, 1600ms total)
T4C10 1024:685 JLINK_GetEmuCaps()  returns 0xB9FF7BBF (0000ms, 1600ms total)
T4C10 1024:685 JLINK_TIF_GetAvailable(...) (0000ms, 1600ms total)
T4C10 1024:685 JLINK_SetErrorOutHandler(...) (0000ms, 1600ms total)
T4C10 1024:685 JLINK_ExecCommand("ProjectFile = "C:\Users\bertz\Desktop\DSv1.0_Release\DSPro\MDK-ARM\JLinkSettings.ini"", ...).   returns 0x00 (0002ms, 1602ms total)
T4C10 1024:689 JLINK_ExecCommand("Device = STM32F103RC", ...). Device "STM32F103RC" selected.  returns 0x00 (0004ms, 1606ms total)
T4C10 1024:693 JLINK_ExecCommand("DisableConnectionTimeout", ...).   returns 0x01 (0000ms, 1606ms total)
T4C10 1024:693 JLINK_GetHardwareVersion()  returns 0x16F30 (0000ms, 1606ms total)
T4C10 1024:693 JLINK_GetDLLVersion()  returns 63008 (0000ms, 1606ms total)
T4C10 1024:693 JLINK_GetFirmwareString(...) (0000ms, 1606ms total)
T4C10 1024:697 JLINK_GetDLLVersion()  returns 63008 (0000ms, 1606ms total)
T4C10 1024:697 JLINK_GetCompileDateTime() (0000ms, 1606ms total)
T4C10 1024:699 JLINK_GetFirmwareString(...) (0000ms, 1606ms total)
T4C10 1024:701 JLINK_GetHardwareVersion()  returns 0x16F30 (0000ms, 1606ms total)
T4C10 1024:708 JLINK_TIF_Select(JLINKARM_TIF_SWD)  returns 0x00 (0000ms, 1606ms total)
T4C10 1024:708 JLINK_SetSpeed(5000) (0001ms, 1607ms total)
T4C10 1024:709 JLINK_GetId() >0x10B TIF>Found SW-DP with ID 0x1BA01477 >0x0D TIF> >0x28 TIF> >0x0D TIF> >0x28 TIF> >0x0D TIF> >0x28 TIF> >0x0D TIF> >0x28 TIF> >0x0D TIF> >0x21 TIF> >0x0D TIF> >0x28 TIF> >0x0D TIF> >0x28 TIF> >0x0D TIF> >0x28 TIF> >0x0D TIF> >0x21 TIF> >0x0D TIF> >0x21 TIF> >0x0D TIF> >0x28 TIF> >0x0D TIF> >0x21 TIF> >0x0D TIF> >0x21 TIF> >0x0D TIF> >0x28 TIF> >0x0D TIF> >0x28 TIF> >0x0D TIF> >0x28 TIF> >0x0D TIF> >0x21 TIF> >0x0D TIF> >0x21 TIF> >0x0D TIF> >0x28 TIF> >0x0D TIF>
 >0x21 TIF> >0x0D TIF> >0x21 TIF> >0x0D TIF> >0x28 TIF> >0x0D TIF> >0x21 TIF> >0x0D TIF> >0x21 TIF> >0x0D TIF> >0x28 TIF> >0x0D TIF> >0x21 TIF> >0x0D TIF> >0x21 TIF> >0x0D TIF> >0x28 TIF> >0x0D TIF> >0x21 TIF> >0x0D TIF> >0x21 TIF> >0x10B TIF>Found SW-DP with ID 0x1BA01477 >0x0D TIF> >0x28 TIF> >0x0D TIF> >0x28 TIF> >0x0D TIF> >0x28 TIF> >0x0D TIF> >0x28 TIF> >0x0D TIF> >0x21 TIF> >0x0D TIF> >0x28 TIF>Scanning AP map to find all available APs >0x0D TIF> >0x28 TIF> >0x0D TIF> >0x21 TIF> >0x0D TIF>
 >0x21 TIF> >0x0D TIF> >0x28 TIF> >0x0D TIF> >0x21 TIF> >0x0D TIF> >0x21 TIF>AP[1]: Stopped AP scan as end of AP map has been reachedAP[0]: AHB-AP (IDR: 0x14770011)Iterating through AP map to find AHB-AP to use >0x42 TIF> >0x28 TIF> >0x0D TIF> >0x28 TIF> >0x0D TIF> >0x21 TIF> >0x0D TIF> >0x21 TIF> >0x42 TIF> >0x28 TIF> >0x0D TIF> >0x28 TIF> >0x0D TIF> >0x28 TIF> >0x0D TIF> >0x21 TIF> >0x0D TIF> >0x21 TIF>AP[0]: Core foundAP[0]: AHB-AP ROM base: 0xE00FF000 >0x0D TIF> >0x28 TIF> >0x0D TIF> >0x28 TIF>
 >0x0D TIF> >0x28 TIF> >0x0D TIF> >0x21 TIF> >0x0D TIF> >0x21 TIF>CPUID register: 0x411FC231. Implementer code: 0x41 (ARM)Found Cortex-M3 r1p1, Little endian. -- CPU_ReadMem(4 bytes @ 0xE000EDF0) -- CPU_WriteMem(4 bytes @ 0xE000EDF0) -- CPU_ReadMem(4 bytes @ 0xE0002000)FPUnit: 6 code (BP) slots and 2 literal slots -- CPU_ReadMem(4 bytes @ 0xE000EDFC) -- CPU_WriteMem(4 bytes @ 0xE000EDFC) -- CPU_ReadMem(4 bytes @ 0xE0001000) -- CPU_WriteMem(4 bytes @ 0xE0001000) -- CPU_ReadMem(4 bytes @ 0xE000ED88)
 -- CPU_WriteMem(4 bytes @ 0xE000ED88) -- CPU_ReadMem(4 bytes @ 0xE000ED88) -- CPU_WriteMem(4 bytes @ 0xE000ED88)CoreSight components:ROMTbl[0] @ E00FF000 -- CPU_ReadMem(16 bytes @ 0xE00FF000) -- CPU_ReadMem(16 bytes @ 0xE000EFF0) -- CPU_ReadMem(16 bytes @ 0xE000EFE0)ROMTbl[0][0]: E000E000, CID: B105E00D, PID: 001BB000 SCS -- CPU_ReadMem(16 bytes @ 0xE0001FF0) -- CPU_ReadMem(16 bytes @ 0xE0001FE0)ROMTbl[0][1]: E0001000, CID: B105E00D, PID: 001BB002 DWT -- CPU_ReadMem(16 bytes @ 0xE0002FF0)
 -- CPU_ReadMem(16 bytes @ 0xE0002FE0)ROMTbl[0][2]: E0002000, CID: B105E00D, PID: 000BB003 FPB -- CPU_ReadMem(16 bytes @ 0xE0000FF0) -- CPU_ReadMem(16 bytes @ 0xE0000FE0)ROMTbl[0][3]: E0000000, CID: B105E00D, PID: 001BB001 ITM -- CPU_ReadMem(16 bytes @ 0xE00FF010) -- CPU_ReadMem(16 bytes @ 0xE0040FF0) -- CPU_ReadMem(16 bytes @ 0xE0040FE0)ROMTbl[0][4]: E0040000, CID: B105900D, PID: 001BB923 TPIU-Lite -- CPU_ReadMem(16 bytes @ 0xE0041FF0) -- CPU_ReadMem(16 bytes @ 0xE0041FE0)
ROMTbl[0][5]: E0041000, CID: B105900D, PID: 101BB924 ETM-M3 >0x0D TIF> >0x21 TIF>  returns 0x1BA01477 (0209ms, 1816ms total)
T4C10 1024:918 JLINK_GetDLLVersion()  returns 63008 (0000ms, 1816ms total)
T4C10 1024:918 JLINK_CORE_GetFound()  returns 0x30000FF (0000ms, 1816ms total)
T4C10 1024:918 JLINK_GetDebugInfo(0x100 = JLINKARM_ROM_TABLE_ADDR_INDEX) -- Value=0xE00FF000  returns 0x00 (0000ms, 1816ms total)
T4C10 1024:922 JLINK_GetDebugInfo(0x100 = JLINKARM_ROM_TABLE_ADDR_INDEX) -- Value=0xE00FF000  returns 0x00 (0000ms, 1816ms total)
T4C10 1024:922 JLINK_GetDebugInfo(0x101 = JLINKARM_DEBUG_INFO_ETM_ADDR_INDEX) -- Value=0xE0041000  returns 0x00 (0000ms, 1816ms total)
T4C10 1024:922 JLINK_ReadMemEx(0xE0041FD0, 0x0020 Bytes, ..., Flags = 0x02000004) -- CPU_ReadMem(32 bytes @ 0xE0041FD0) - Data: 04 00 00 00 00 00 00 00 00 00 00 00 00 00 00 00 ...  returns 0x20 (0001ms, 1817ms total)
T4C10 1024:923 JLINK_GetDebugInfo(0x102 = JLINKARM_DEBUG_INFO_MTB_ADDR_INDEX) -- Value=0x00000000  returns 0x00 (0000ms, 1817ms total)
T4C10 1024:923 JLINK_GetDebugInfo(0x103 = JLINKARM_DEBUG_INFO_TPIU_ADDR_INDEX) -- Value=0xE0040000  returns 0x00 (0000ms, 1817ms total)
T4C10 1024:923 JLINK_GetDebugInfo(0x104 = JLINKARM_DEBUG_INFO_ITM_ADDR_INDEX) -- Value=0xE0000000  returns 0x00 (0000ms, 1817ms total)
T4C10 1024:923 JLINK_GetDebugInfo(0x105 = JLINKARM_DEBUG_INFO_DWT_ADDR_INDEX) -- Value=0xE0001000  returns 0x00 (0000ms, 1817ms total)
T4C10 1024:923 JLINK_GetDebugInfo(0x106 = JLINKARM_DEBUG_INFO_FPB_ADDR_INDEX) -- Value=0xE0002000  returns 0x00 (0000ms, 1817ms total)
T4C10 1024:923 JLINK_GetDebugInfo(0x107 = JLINKARM_DEBUG_INFO_NVIC_ADDR_INDEX) -- Value=0xE000E000  returns 0x00 (0000ms, 1817ms total)
T4C10 1024:923 JLINK_GetDebugInfo(0x10C = JLINKARM_DEBUG_INFO_DBG_ADDR_INDEX) -- Value=0xE000EDF0  returns 0x00 (0000ms, 1817ms total)
T4C10 1024:923 JLINK_GetDebugInfo(0x01 = Unknown) -- Value=0x00000000  returns 0x00 (0000ms, 1817ms total)
T4C10 1024:923 JLINK_ReadMemU32(0xE000ED00, 0x0001 Items, ...) -- CPU_ReadMem(4 bytes @ 0xE000ED00) - Data: 31 C2 1F 41  returns 0x01 (0000ms, 1817ms total)
T4C10 1024:923 JLINK_GetDebugInfo(0x10F = JLINKARM_DEBUG_INFO_HAS_CORTEX_M_SECURITY_EXT_INDEX) -- Value=0x00000000  returns 0x00 (0000ms, 1817ms total)
T4C10 1024:923 JLINK_SetResetType(JLINKARM_CM3_RESET_TYPE_NORMAL)  returns JLINKARM_CM3_RESET_TYPE_NORMAL (0000ms, 1817ms total)
T4C10 1024:923 JLINK_Reset() -- CPU is running -- CPU_WriteMem(4 bytes @ 0xE000EDF0) -- CPU is running -- CPU_WriteMem(4 bytes @ 0xE000EDFC)Reset: Halt core after reset via DEMCR.VC_CORERESET. >0x35 TIF>Reset: Reset device via AIRCR.SYSRESETREQ. -- CPU is running -- CPU_WriteMem(4 bytes @ 0xE000ED0C) >0x0D TIF> >0x28 TIF> -- CPU_ReadMem(4 bytes @ 0xE000EDF0) -- CPU_ReadMem(4 bytes @ 0xE000EDF0) -- CPU is running -- CPU_WriteMem(4 bytes @ 0xE000EDF0) -- CPU is running -- CPU_WriteMem(4 bytes @ 0xE000EDFC)
 -- CPU_ReadMem(4 bytes @ 0xE000EDF0) -- CPU_WriteMem(4 bytes @ 0xE0002000) -- CPU_ReadMem(4 bytes @ 0xE000EDFC) -- CPU_ReadMem(4 bytes @ 0xE0001000) (0076ms, 1893ms total)
T4C10 1024:999 JLINK_Halt()  returns 0x00 (0000ms, 1893ms total)
T4C10 1024:999 JLINK_ReadMemU32(0xE000EDF0, 0x0001 Items, ...) -- CPU_ReadMem(4 bytes @ 0xE000EDF0) - Data: 03 00 03 00  returns 0x01 (0000ms, 1893ms total)
T4C10 1024:999 JLINK_WriteU32(0xE000EDF0, 0xA05F0003) -- CPU_WriteMem(4 bytes @ 0xE000EDF0)  returns 0x00 (0001ms, 1894ms total)
T4C10 1025:000 JLINK_WriteU32(0xE000EDFC, 0x01000000) -- CPU_WriteMem(4 bytes @ 0xE000EDFC)  returns 0x00 (0001ms, 1895ms total)
T4C10 1025:033 JLINK_GetHWStatus(...)  returns 0x00 (0000ms, 1895ms total)
T4C10 1025:051 JLINK_GetNumBPUnits(Type = 0xFFFFFF00)  returns 0x06 (0000ms, 1895ms total)
T4C10 1025:051 JLINK_GetNumBPUnits(Type = 0xF0)  returns 0x2000 (0000ms, 1895ms total)
T4C10 1025:051 JLINK_GetNumWPUnits()  returns 0x04 (0000ms, 1895ms total)
T4C10 1025:060 JLINK_GetSpeed()  returns 0xFA0 (0000ms, 1895ms total)
T4C10 1025:066 JLINK_ReadMemU32(0xE000E004, 0x0001 Items, ...) -- CPU_ReadMem(4 bytes @ 0xE000E004) - Data: 01 00 00 00  returns 0x01 (0000ms, 1895ms total)
T4C10 1025:066 JLINK_ReadMemU32(0xE000E004, 0x0001 Items, ...) -- CPU_ReadMem(4 bytes @ 0xE000E004) - Data: 01 00 00 00  returns 0x01 (0001ms, 1896ms total)
T4C10 1025:067 JLINK_WriteMemEx(0xE0001000, 0x001C Bytes, ..., Flags = 0x02000004) - Data: 01 00 00 00 00 00 00 00 00 00 00 00 00 00 00 00 ... -- CPU_WriteMem(28 bytes @ 0xE0001000)  returns 0x1C (0001ms, 1897ms total)
T4C10 1025:068 JLINK_Halt()  returns 0x00 (0000ms, 1897ms total)
T4C10 1025:068 JLINK_IsHalted()  returns TRUE (0000ms, 1897ms total)
T4C10 1025:072 JLINK_WriteMem(0x20000000, 0x0164 Bytes, ...) - Data: 00 BE 0A E0 0D 78 2D 06 68 40 08 24 40 00 00 D3 ... -- CPU_WriteMem(356 bytes @ 0x20000000)  returns 0x164 (0003ms, 1900ms total)
T4C10 1025:075 JLINK_WriteReg(R0, 0x08000000)  returns 0x00 (0000ms, 1900ms total)
T4C10 1025:075 JLINK_WriteReg(R1, 0x044AA200)  returns 0x00 (0000ms, 1900ms total)
T4C10 1025:075 JLINK_WriteReg(R2, 0x00000001)  returns 0x00 (0000ms, 1900ms total)
T4C10 1025:075 JLINK_WriteReg(R3, 0x00000000)  returns 0x00 (0000ms, 1900ms total)
T4C10 1025:075 JLINK_WriteReg(R4, 0x00000000)  returns 0x00 (0000ms, 1900ms total)
T4C10 1025:075 JLINK_WriteReg(R5, 0x00000000)  returns 0x00 (0000ms, 1900ms total)
T4C10 1025:075 JLINK_WriteReg(R6, 0x00000000)  returns 0x00 (0000ms, 1900ms total)
T4C10 1025:075 JLINK_WriteReg(R7, 0x00000000)  returns 0x00 (0000ms, 1900ms total)
T4C10 1025:075 JLINK_WriteReg(R8, 0x00000000)  returns 0x00 (0000ms, 1900ms total)
T4C10 1025:076 JLINK_WriteReg(R9, 0x20000160)  returns 0x00 (0000ms, 1900ms total)
T4C10 1025:076 JLINK_WriteReg(R10, 0x00000000)  returns 0x00 (0000ms, 1900ms total)
T4C10 1025:076 JLINK_WriteReg(R11, 0x00000000)  returns 0x00 (0000ms, 1900ms total)
T4C10 1025:076 JLINK_WriteReg(R12, 0x00000000)  returns 0x00 (0000ms, 1900ms total)
T4C10 1025:076 JLINK_WriteReg(R13 (SP), 0x20001000)  returns 0x00 (0000ms, 1900ms total)
T4C10 1025:076 JLINK_WriteReg(R14, 0x20000001)  returns 0x00 (0000ms, 1900ms total)
T4C10 1025:076 JLINK_WriteReg(R15 (PC), 0x20000038)  returns 0x00 (0000ms, 1900ms total)
T4C10 1025:076 JLINK_WriteReg(XPSR, 0x01000000)  returns 0x00 (0000ms, 1900ms total)
T4C10 1025:076 JLINK_WriteReg(MSP, 0x20001000)  returns 0x00 (0000ms, 1900ms total)
T4C10 1025:076 JLINK_WriteReg(PSP, 0x20001000)  returns 0x00 (0000ms, 1900ms total)
T4C10 1025:076 JLINK_WriteReg(CFBP, 0x00000000)  returns 0x00 (0000ms, 1900ms total)
T4C10 1025:076 JLINK_SetBPEx(Addr = 0x20000000, Type = 0xFFFFFFF2) -- CPU_ReadMem(2 bytes @ 0x20000000)  returns 0x00000001 (0000ms, 1900ms total)
T4C10 1025:076 JLINK_Go() -- CPU_WriteMem(2 bytes @ 0x20000000) -- CPU_ReadMem(4 bytes @ 0xE0001000) -- CPU_WriteMem(4 bytes @ 0xE0002008) -- CPU_WriteMem(4 bytes @ 0xE000200C) -- CPU_WriteMem(4 bytes @ 0xE0002010) -- CPU_WriteMem(4 bytes @ 0xE0002014) -- CPU_WriteMem(4 bytes @ 0xE0002018) -- CPU_WriteMem(4 bytes @ 0xE000201C) -- CPU_WriteMem(4 bytes @ 0xE0001004) (0006ms, 1906ms total)
T4C10 1025:082 JLINK_IsHalted() -- CPU_ReadMem(2 bytes @ 0x20000000)  returns TRUE (0003ms, 1909ms total)
T4C10 1025:085 JLINK_ReadReg(R15 (PC))  returns 0x20000000 (0000ms, 1906ms total)
T4C10 1025:085 JLINK_ClrBPEx(BPHandle = 0x00000001)  returns 0x00 (0000ms, 1906ms total)
T4C10 1025:085 JLINK_ReadReg(R0)  returns 0x00000000 (0000ms, 1906ms total)
T4C10 1025:086 JLINK_WriteReg(R0, 0x08000000)  returns 0x00 (0000ms, 1906ms total)
T4C10 1025:086 JLINK_WriteReg(R1, 0x044AA200)  returns 0x00 (0000ms, 1906ms total)
T4C10 1025:086 JLINK_WriteReg(R2, 0x00000001)  returns 0x00 (0000ms, 1906ms total)
T4C10 1025:086 JLINK_WriteReg(R3, 0x00000000)  returns 0x00 (0000ms, 1906ms total)
T4C10 1025:086 JLINK_WriteReg(R4, 0x00000000)  returns 0x00 (0000ms, 1906ms total)
T4C10 1025:086 JLINK_WriteReg(R5, 0x00000000)  returns 0x00 (0000ms, 1906ms total)
T4C10 1025:086 JLINK_WriteReg(R6, 0x00000000)  returns 0x00 (0000ms, 1906ms total)
T4C10 1025:086 JLINK_WriteReg(R7, 0x00000000)  returns 0x00 (0000ms, 1906ms total)
T4C10 1025:086 JLINK_WriteReg(R8, 0x00000000)  returns 0x00 (0000ms, 1906ms total)
T4C10 1025:086 JLINK_WriteReg(R9, 0x20000160)  returns 0x00 (0000ms, 1906ms total)
T4C10 1025:086 JLINK_WriteReg(R10, 0x00000000)  returns 0x00 (0000ms, 1906ms total)
T4C10 1025:086 JLINK_WriteReg(R11, 0x00000000)  returns 0x00 (0000ms, 1906ms total)
T4C10 1025:086 JLINK_WriteReg(R12, 0x00000000)  returns 0x00 (0000ms, 1906ms total)
T4C10 1025:086 JLINK_WriteReg(R13 (SP), 0x20001000)  returns 0x00 (0000ms, 1906ms total)
T4C10 1025:086 JLINK_WriteReg(R14, 0x20000001)  returns 0x00 (0000ms, 1906ms total)
T4C10 1025:086 JLINK_WriteReg(R15 (PC), 0x2000007C)  returns 0x00 (0000ms, 1906ms total)
T4C10 1025:086 JLINK_WriteReg(XPSR, 0x01000000)  returns 0x00 (0000ms, 1906ms total)
T4C10 1025:086 JLINK_WriteReg(MSP, 0x20001000)  returns 0x00 (0000ms, 1906ms total)
T4C10 1025:086 JLINK_WriteReg(PSP, 0x20001000)  returns 0x00 (0000ms, 1906ms total)
T4C10 1025:086 JLINK_WriteReg(CFBP, 0x00000000)  returns 0x00 (0000ms, 1906ms total)
T4C10 1025:086 JLINK_SetBPEx(Addr = 0x20000000, Type = 0xFFFFFFF2)  returns 0x00000002 (0000ms, 1906ms total)
T4C10 1025:086 JLINK_Go() -- CPU_ReadMem(4 bytes @ 0xE0001000) (0002ms, 1908ms total)
T4C10 1025:088 JLINK_IsHalted()  returns FALSE (0000ms, 1908ms total)
T4C10 1025:142 JLINK_IsHalted() -- CPU_ReadMem(2 bytes @ 0x20000000)  returns TRUE (0003ms, 1911ms total)
T4C10 1025:145 JLINK_ReadReg(R15 (PC))  returns 0x20000000 (0000ms, 1908ms total)
T4C10 1025:145 JLINK_ClrBPEx(BPHandle = 0x00000002)  returns 0x00 (0000ms, 1908ms total)
T4C10 1025:145 JLINK_ReadReg(R0)  returns 0x00000000 (0000ms, 1908ms total)
T4C10 1025:197 JLINK_WriteReg(R0, 0x00000001)  returns 0x00 (0000ms, 1908ms total)
T4C10 1025:197 JLINK_WriteReg(R1, 0x044AA200)  returns 0x00 (0000ms, 1908ms total)
T4C10 1025:197 JLINK_WriteReg(R2, 0x00000001)  returns 0x00 (0000ms, 1908ms total)
T4C10 1025:197 JLINK_WriteReg(R3, 0x00000000)  returns 0x00 (0000ms, 1908ms total)
T4C10 1025:197 JLINK_WriteReg(R4, 0x00000000)  returns 0x00 (0000ms, 1908ms total)
T4C10 1025:197 JLINK_WriteReg(R5, 0x00000000)  returns 0x00 (0000ms, 1908ms total)
T4C10 1025:197 JLINK_WriteReg(R6, 0x00000000)  returns 0x00 (0000ms, 1908ms total)
T4C10 1025:197 JLINK_WriteReg(R7, 0x00000000)  returns 0x00 (0000ms, 1908ms total)
T4C10 1025:197 JLINK_WriteReg(R8, 0x00000000)  returns 0x00 (0000ms, 1908ms total)
T4C10 1025:197 JLINK_WriteReg(R9, 0x20000160)  returns 0x00 (0000ms, 1908ms total)
T4C10 1025:197 JLINK_WriteReg(R10, 0x00000000)  returns 0x00 (0000ms, 1908ms total)
T4C10 1025:198 JLINK_WriteReg(R11, 0x00000000)  returns 0x00 (0000ms, 1909ms total)
T4C10 1025:198 JLINK_WriteReg(R12, 0x00000000)  returns 0x00 (0000ms, 1909ms total)
T4C10 1025:198 JLINK_WriteReg(R13 (SP), 0x20001000)  returns 0x00 (0000ms, 1909ms total)
T4C10 1025:198 JLINK_WriteReg(R14, 0x20000001)  returns 0x00 (0000ms, 1909ms total)
T4C10 1025:198 JLINK_WriteReg(R15 (PC), 0x2000006A)  returns 0x00 (0000ms, 1909ms total)
T4C10 1025:198 JLINK_WriteReg(XPSR, 0x01000000)  returns 0x00 (0000ms, 1909ms total)
T4C10 1025:198 JLINK_WriteReg(MSP, 0x20001000)  returns 0x00 (0000ms, 1909ms total)
T4C10 1025:198 JLINK_WriteReg(PSP, 0x20001000)  returns 0x00 (0000ms, 1909ms total)
T4C10 1025:198 JLINK_WriteReg(CFBP, 0x00000000)  returns 0x00 (0000ms, 1909ms total)
T4C10 1025:198 JLINK_SetBPEx(Addr = 0x20000000, Type = 0xFFFFFFF2)  returns 0x00000003 (0000ms, 1909ms total)
T4C10 1025:198 JLINK_Go() -- CPU_ReadMem(4 bytes @ 0xE0001000) (0002ms, 1911ms total)
T4C10 1025:200 JLINK_IsHalted() -- CPU_ReadMem(2 bytes @ 0x20000000)  returns TRUE (0004ms, 1915ms total)
T4C10 1025:204 JLINK_ReadReg(R15 (PC))  returns 0x20000000 (0000ms, 1911ms total)
T4C10 1025:204 JLINK_ClrBPEx(BPHandle = 0x00000003)  returns 0x00 (0000ms, 1911ms total)
T4C10 1025:204 JLINK_ReadReg(R0)  returns 0x00000000 (0000ms, 1911ms total)
T4C10 1025:219 JLINK_WriteMem(0x20000000, 0x0164 Bytes, ...) - Data: 00 BE 0A E0 0D 78 2D 06 68 40 08 24 40 00 00 D3 ... -- CPU_WriteMem(356 bytes @ 0x20000000)  returns 0x164 (0003ms, 1914ms total)
T4C10 1025:222 JLINK_WriteReg(R0, 0x08000000)  returns 0x00 (0000ms, 1914ms total)
T4C10 1025:223 JLINK_WriteReg(R1, 0x044AA200)  returns 0x00 (0000ms, 1914ms total)
T4C10 1025:223 JLINK_WriteReg(R2, 0x00000002)  returns 0x00 (0000ms, 1914ms total)
T4C10 1025:223 JLINK_WriteReg(R3, 0x00000000)  returns 0x00 (0000ms, 1914ms total)
T4C10 1025:223 JLINK_WriteReg(R4, 0x00000000)  returns 0x00 (0000ms, 1914ms total)
T4C10 1025:223 JLINK_WriteReg(R5, 0x00000000)  returns 0x00 (0000ms, 1914ms total)
T4C10 1025:223 JLINK_WriteReg(R6, 0x00000000)  returns 0x00 (0000ms, 1914ms total)
T4C10 1025:223 JLINK_WriteReg(R7, 0x00000000)  returns 0x00 (0000ms, 1914ms total)
T4C10 1025:223 JLINK_WriteReg(R8, 0x00000000)  returns 0x00 (0000ms, 1914ms total)
T4C10 1025:223 JLINK_WriteReg(R9, 0x20000160)  returns 0x00 (0000ms, 1914ms total)
T4C10 1025:223 JLINK_WriteReg(R10, 0x00000000)  returns 0x00 (0000ms, 1914ms total)
T4C10 1025:223 JLINK_WriteReg(R11, 0x00000000)  returns 0x00 (0000ms, 1914ms total)
T4C10 1025:223 JLINK_WriteReg(R12, 0x00000000)  returns 0x00 (0000ms, 1914ms total)
T4C10 1025:223 JLINK_WriteReg(R13 (SP), 0x20001000)  returns 0x00 (0000ms, 1914ms total)
T4C10 1025:223 JLINK_WriteReg(R14, 0x20000001)  returns 0x00 (0000ms, 1914ms total)
T4C10 1025:223 JLINK_WriteReg(R15 (PC), 0x20000038)  returns 0x00 (0000ms, 1914ms total)
T4C10 1025:223 JLINK_WriteReg(XPSR, 0x01000000)  returns 0x00 (0000ms, 1914ms total)
T4C10 1025:223 JLINK_WriteReg(MSP, 0x20001000)  returns 0x00 (0000ms, 1914ms total)
T4C10 1025:223 JLINK_WriteReg(PSP, 0x20001000)  returns 0x00 (0000ms, 1914ms total)
T4C10 1025:224 JLINK_WriteReg(CFBP, 0x00000000)  returns 0x00 (0000ms, 1915ms total)
T4C10 1025:224 JLINK_SetBPEx(Addr = 0x20000000, Type = 0xFFFFFFF2) -- CPU_ReadMem(2 bytes @ 0x20000000)  returns 0x00000004 (0000ms, 1915ms total)
T4C10 1025:224 JLINK_Go() -- CPU_WriteMem(2 bytes @ 0x20000000) -- CPU_ReadMem(4 bytes @ 0xE0001000) (0003ms, 1918ms total)
T4C10 1025:227 JLINK_IsHalted() -- CPU_ReadMem(2 bytes @ 0x20000000)  returns TRUE (0003ms, 1921ms total)
T4C10 1025:230 JLINK_ReadReg(R15 (PC))  returns 0x20000000 (0000ms, 1918ms total)
T4C10 1025:230 JLINK_ClrBPEx(BPHandle = 0x00000004)  returns 0x00 (0000ms, 1918ms total)
T4C10 1025:230 JLINK_ReadReg(R0)  returns 0x00000000 (0000ms, 1918ms total)
T4C10 1025:231 JLINK_WriteMem(0x20000164, 0x029C Bytes, ...) - Data: 50 0D 00 20 45 01 00 08 E7 2C 00 08 DD 27 00 08 ... -- CPU_WriteMem(668 bytes @ 0x20000164)  returns 0x29C (0005ms, 1923ms total)
T4C10 1025:236 JLINK_WriteMem(0x20000400, 0x0164 Bytes, ...) - Data: C9 43 C9 07 1C D1 81 68 21 F0 01 01 81 60 00 F0 ... -- CPU_WriteMem(356 bytes @ 0x20000400)  returns 0x164 (0003ms, 1926ms total)
T4C10 1025:239 JLINK_WriteReg(R0, 0x08000000)  returns 0x00 (0000ms, 1926ms total)
T4C10 1025:239 JLINK_WriteReg(R1, 0x00000400)  returns 0x00 (0000ms, 1926ms total)
T4C10 1025:239 JLINK_WriteReg(R2, 0x20000164)  returns 0x00 (0000ms, 1926ms total)
T4C10 1025:239 JLINK_WriteReg(R3, 0x00000000)  returns 0x00 (0000ms, 1926ms total)
T4C10 1025:239 JLINK_WriteReg(R4, 0x00000000)  returns 0x00 (0000ms, 1926ms total)
T4C10 1025:239 JLINK_WriteReg(R5, 0x00000000)  returns 0x00 (0000ms, 1926ms total)
T4C10 1025:239 JLINK_WriteReg(R6, 0x00000000)  returns 0x00 (0000ms, 1926ms total)
T4C10 1025:239 JLINK_WriteReg(R7, 0x00000000)  returns 0x00 (0000ms, 1926ms total)
T4C10 1025:239 JLINK_WriteReg(R8, 0x00000000)  returns 0x00 (0000ms, 1926ms total)
T4C10 1025:239 JLINK_WriteReg(R9, 0x20000160)  returns 0x00 (0000ms, 1926ms total)
T4C10 1025:239 JLINK_WriteReg(R10, 0x00000000)  returns 0x00 (0000ms, 1926ms total)
T4C10 1025:239 JLINK_WriteReg(R11, 0x00000000)  returns 0x00 (0000ms, 1926ms total)
T4C10 1025:239 JLINK_WriteReg(R12, 0x00000000)  returns 0x00 (0000ms, 1926ms total)
T4C10 1025:239 JLINK_WriteReg(R13 (SP), 0x20001000)  returns 0x00 (0000ms, 1926ms total)
T4C10 1025:239 JLINK_WriteReg(R14, 0x20000001)  returns 0x00 (0000ms, 1926ms total)
T4C10 1025:239 JLINK_WriteReg(R15 (PC), 0x200000F4)  returns 0x00 (0000ms, 1926ms total)
T4C10 1025:239 JLINK_WriteReg(XPSR, 0x01000000)  returns 0x00 (0000ms, 1926ms total)
T4C10 1025:239 JLINK_WriteReg(MSP, 0x20001000)  returns 0x00 (0000ms, 1926ms total)
T4C10 1025:239 JLINK_WriteReg(PSP, 0x20001000)  returns 0x00 (0000ms, 1926ms total)
T4C10 1025:239 JLINK_WriteReg(CFBP, 0x00000000)  returns 0x00 (0000ms, 1926ms total)
T4C10 1025:239 JLINK_SetBPEx(Addr = 0x20000000, Type = 0xFFFFFFF2)  returns 0x00000005 (0000ms, 1926ms total)
T4C10 1025:239 JLINK_Go() -- CPU_ReadMem(4 bytes @ 0xE0001000) (0002ms, 1928ms total)
T4C10 1025:241 JLINK_IsHalted()  returns FALSE (0001ms, 1929ms total)
T4C10 1025:254 JLINK_IsHalted()  returns FALSE (0000ms, 1928ms total)
T4C10 1025:259 JLINK_IsHalted()  returns FALSE (0000ms, 1928ms total)
T4C10 1025:261 JLINK_IsHalted()  returns FALSE (0000ms, 1928ms total)
T4C10 1025:266 JLINK_IsHalted()  returns FALSE (0000ms, 1928ms total)
T4C10 1025:268 JLINK_IsHalted()  returns FALSE (0000ms, 1928ms total)
T4C10 1025:270 JLINK_IsHalted()  returns FALSE (0000ms, 1928ms total)
T4C10 1025:275 JLINK_IsHalted()  returns FALSE (0000ms, 1928ms total)
T4C10 1025:277 JLINK_IsHalted()  returns FALSE (0000ms, 1928ms total)
T4C10 1025:282 JLINK_IsHalted()  returns FALSE (0000ms, 1928ms total)
T4C10 1025:284 JLINK_IsHalted()  returns FALSE (0000ms, 1928ms total)
T4C10 1025:286 JLINK_IsHalted()  returns FALSE (0000ms, 1928ms total)
T4C10 1025:291 JLINK_IsHalted() -- CPU_ReadMem(2 bytes @ 0x20000000)  returns TRUE (0003ms, 1931ms total)
T4C10 1025:294 JLINK_ReadReg(R15 (PC))  returns 0x20000000 (0000ms, 1928ms total)
T4C10 1025:294 JLINK_ClrBPEx(BPHandle = 0x00000005)  returns 0x00 (0000ms, 1928ms total)
T4C10 1025:294 JLINK_ReadReg(R0)  returns 0x00000000 (0000ms, 1928ms total)
T4C10 1025:295 JLINK_WriteMem(0x20000164, 0x029C Bytes, ...) - Data: 60 6B 00 68 40 68 0F 4C C0 F5 80 70 82 B2 A2 80 ... -- CPU_WriteMem(668 bytes @ 0x20000164)  returns 0x29C (0005ms, 1933ms total)
T4C10 1025:300 JLINK_WriteMem(0x20000400, 0x0164 Bytes, ...) - Data: 02 EB 42 02 93 40 9F 43 8B 68 93 40 1F 43 F7 60 ... -- CPU_WriteMem(356 bytes @ 0x20000400)  returns 0x164 (0003ms, 1936ms total)
T4C10 1025:303 JLINK_WriteReg(R0, 0x08000400)  returns 0x00 (0000ms, 1936ms total)
T4C10 1025:303 JLINK_WriteReg(R1, 0x00000400)  returns 0x00 (0000ms, 1936ms total)
T4C10 1025:303 JLINK_WriteReg(R2, 0x20000164)  returns 0x00 (0000ms, 1936ms total)
T4C10 1025:303 JLINK_WriteReg(R3, 0x00000000)  returns 0x00 (0000ms, 1936ms total)
T4C10 1025:303 JLINK_WriteReg(R4, 0x00000000)  returns 0x00 (0000ms, 1936ms total)
T4C10 1025:303 JLINK_WriteReg(R5, 0x00000000)  returns 0x00 (0000ms, 1936ms total)
T4C10 1025:303 JLINK_WriteReg(R6, 0x00000000)  returns 0x00 (0000ms, 1936ms total)
T4C10 1025:303 JLINK_WriteReg(R7, 0x00000000)  returns 0x00 (0000ms, 1936ms total)
T4C10 1025:303 JLINK_WriteReg(R8, 0x00000000)  returns 0x00 (0000ms, 1936ms total)
T4C10 1025:303 JLINK_WriteReg(R9, 0x20000160)  returns 0x00 (0000ms, 1936ms total)
T4C10 1025:303 JLINK_WriteReg(R10, 0x00000000)  returns 0x00 (0000ms, 1936ms total)
T4C10 1025:303 JLINK_WriteReg(R11, 0x00000000)  returns 0x00 (0000ms, 1936ms total)
T4C10 1025:303 JLINK_WriteReg(R12, 0x00000000)  returns 0x00 (0000ms, 1936ms total)
T4C10 1025:303 JLINK_WriteReg(R13 (SP), 0x20001000)  returns 0x00 (0000ms, 1936ms total)
T4C10 1025:303 JLINK_WriteReg(R14, 0x20000001)  returns 0x00 (0000ms, 1936ms total)
T4C10 1025:303 JLINK_WriteReg(R15 (PC), 0x200000F4)  returns 0x00 (0000ms, 1936ms total)
T4C10 1025:303 JLINK_WriteReg(XPSR, 0x01000000)  returns 0x00 (0000ms, 1936ms total)
T4C10 1025:303 JLINK_WriteReg(MSP, 0x20001000)  returns 0x00 (0000ms, 1936ms total)
T4C10 1025:303 JLINK_WriteReg(PSP, 0x20001000)  returns 0x00 (0000ms, 1936ms total)
T4C10 1025:303 JLINK_WriteReg(CFBP, 0x00000000)  returns 0x00 (0000ms, 1936ms total)
T4C10 1025:303 JLINK_SetBPEx(Addr = 0x20000000, Type = 0xFFFFFFF2)  returns 0x00000006 (0000ms, 1936ms total)
T4C10 1025:303 JLINK_Go() -- CPU_ReadMem(4 bytes @ 0xE0001000) (0002ms, 1938ms total)
T4C10 1025:305 JLINK_IsHalted()  returns FALSE (0001ms, 1939ms total)
T4C10 1025:314 JLINK_IsHalted()  returns FALSE (0000ms, 1938ms total)
T4C10 1025:316 JLINK_IsHalted()  returns FALSE (0000ms, 1938ms total)
T4C10 1025:318 JLINK_IsHalted()  returns FALSE (0000ms, 1938ms total)
T4C10 1025:323 JLINK_IsHalted()  returns FALSE (0000ms, 1938ms total)
T4C10 1025:325 JLINK_IsHalted()  returns FALSE (0000ms, 1938ms total)
T4C10 1025:327 JLINK_IsHalted()  returns FALSE (0000ms, 1938ms total)
T4C10 1025:332 JLINK_IsHalted()  returns FALSE (0000ms, 1938ms total)
T4C10 1025:334 JLINK_IsHalted()  returns FALSE (0000ms, 1938ms total)
T4C10 1025:339 JLINK_IsHalted()  returns FALSE (0000ms, 1938ms total)
T4C10 1025:341 JLINK_IsHalted()  returns FALSE (0000ms, 1938ms total)
T4C10 1025:346 JLINK_IsHalted()  returns FALSE (0000ms, 1938ms total)
T4C10 1025:348 JLINK_IsHalted()  returns FALSE (0000ms, 1938ms total)
T4C10 1025:350 JLINK_IsHalted()  returns FALSE (0000ms, 1938ms total)
T4C10 1025:355 JLINK_IsHalted() -- CPU_ReadMem(2 bytes @ 0x20000000)  returns TRUE (0003ms, 1941ms total)
T4C10 1025:358 JLINK_ReadReg(R15 (PC))  returns 0x20000000 (0000ms, 1938ms total)
T4C10 1025:358 JLINK_ClrBPEx(BPHandle = 0x00000006)  returns 0x00 (0000ms, 1938ms total)
T4C10 1025:358 JLINK_ReadReg(R0)  returns 0x00000000 (0000ms, 1938ms total)
T4C10 1025:359 JLINK_WriteMem(0x20000164, 0x029C Bytes, ...) - Data: A0 62 20 46 00 F0 96 F8 21 68 6F F0 01 00 08 60 ... -- CPU_WriteMem(668 bytes @ 0x20000164)  returns 0x29C (0005ms, 1943ms total)
T4C10 1025:364 JLINK_WriteMem(0x20000400, 0x0164 Bytes, ...) - Data: A0 6A 20 F4 80 70 A0 62 A0 6A C0 04 03 D4 A0 6A ... -- CPU_WriteMem(356 bytes @ 0x20000400)  returns 0x164 (0003ms, 1946ms total)
T4C10 1025:367 JLINK_WriteReg(R0, 0x08000800)  returns 0x00 (0000ms, 1946ms total)
T4C10 1025:367 JLINK_WriteReg(R1, 0x00000400)  returns 0x00 (0000ms, 1946ms total)
T4C10 1025:367 JLINK_WriteReg(R2, 0x20000164)  returns 0x00 (0000ms, 1946ms total)
T4C10 1025:367 JLINK_WriteReg(R3, 0x00000000)  returns 0x00 (0000ms, 1946ms total)
T4C10 1025:367 JLINK_WriteReg(R4, 0x00000000)  returns 0x00 (0000ms, 1946ms total)
T4C10 1025:367 JLINK_WriteReg(R5, 0x00000000)  returns 0x00 (0000ms, 1946ms total)
T4C10 1025:367 JLINK_WriteReg(R6, 0x00000000)  returns 0x00 (0000ms, 1946ms total)
T4C10 1025:367 JLINK_WriteReg(R7, 0x00000000)  returns 0x00 (0000ms, 1946ms total)
T4C10 1025:367 JLINK_WriteReg(R8, 0x00000000)  returns 0x00 (0000ms, 1946ms total)
T4C10 1025:367 JLINK_WriteReg(R9, 0x20000160)  returns 0x00 (0000ms, 1946ms total)
T4C10 1025:367 JLINK_WriteReg(R10, 0x00000000)  returns 0x00 (0000ms, 1946ms total)
T4C10 1025:367 JLINK_WriteReg(R11, 0x00000000)  returns 0x00 (0000ms, 1946ms total)
T4C10 1025:367 JLINK_WriteReg(R12, 0x00000000)  returns 0x00 (0000ms, 1946ms total)
T4C10 1025:367 JLINK_WriteReg(R13 (SP), 0x20001000)  returns 0x00 (0000ms, 1946ms total)
T4C10 1025:367 JLINK_WriteReg(R14, 0x20000001)  returns 0x00 (0000ms, 1946ms total)
T4C10 1025:367 JLINK_WriteReg(R15 (PC), 0x200000F4)  returns 0x00 (0000ms, 1946ms total)
T4C10 1025:367 JLINK_WriteReg(XPSR, 0x01000000)  returns 0x00 (0000ms, 1946ms total)
T4C10 1025:367 JLINK_WriteReg(MSP, 0x20001000)  returns 0x00 (0000ms, 1946ms total)
T4C10 1025:367 JLINK_WriteReg(PSP, 0x20001000)  returns 0x00 (0001ms, 1947ms total)
T4C10 1025:368 JLINK_WriteReg(CFBP, 0x00000000)  returns 0x00 (0000ms, 1947ms total)
T4C10 1025:368 JLINK_SetBPEx(Addr = 0x20000000, Type = 0xFFFFFFF2)  returns 0x00000007 (0000ms, 1947ms total)
T4C10 1025:368 JLINK_Go() -- CPU_ReadMem(4 bytes @ 0xE0001000) (0002ms, 1949ms total)
T4C10 1025:370 JLINK_IsHalted()  returns FALSE (0000ms, 1949ms total)
T4C10 1025:380 JLINK_IsHalted()  returns FALSE (0000ms, 1949ms total)
T4C10 1025:382 JLINK_IsHalted()  returns FALSE (0000ms, 1949ms total)
T4C10 1025:387 JLINK_IsHalted()  returns FALSE (0000ms, 1949ms total)
T4C10 1025:389 JLINK_IsHalted()  returns FALSE (0000ms, 1949ms total)
T4C10 1025:394 JLINK_IsHalted()  returns FALSE (0000ms, 1949ms total)
T4C10 1025:396 JLINK_IsHalted()  returns FALSE (0000ms, 1949ms total)
T4C10 1025:398 JLINK_IsHalted()  returns FALSE (0000ms, 1949ms total)
T4C10 1025:403 JLINK_IsHalted()  returns FALSE (0000ms, 1949ms total)
T4C10 1025:405 JLINK_IsHalted()  returns FALSE (0000ms, 1949ms total)
T4C10 1025:410 JLINK_IsHalted()  returns FALSE (0000ms, 1949ms total)
T4C10 1025:412 JLINK_IsHalted()  returns FALSE (0000ms, 1949ms total)
T4C10 1025:414 JLINK_IsHalted()  returns FALSE (0000ms, 1949ms total)
T4C10 1025:419 JLINK_IsHalted() -- CPU_ReadMem(2 bytes @ 0x20000000)  returns TRUE (0003ms, 1952ms total)
T4C10 1025:422 JLINK_ReadReg(R15 (PC))  returns 0x20000000 (0000ms, 1949ms total)
T4C10 1025:422 JLINK_ClrBPEx(BPHandle = 0x00000007)  returns 0x00 (0000ms, 1949ms total)
T4C10 1025:422 JLINK_ReadReg(R0)  returns 0x00000000 (0000ms, 1949ms total)
T4C10 1025:423 JLINK_WriteMem(0x20000164, 0x029C Bytes, ...) - Data: AC F1 64 0C A9 F1 50 09 AA F1 3C 0A AB F1 28 0B ... -- CPU_WriteMem(668 bytes @ 0x20000164)  returns 0x29C (0005ms, 1954ms total)
T4C10 1025:428 JLINK_WriteMem(0x20000400, 0x0164 Bytes, ...) - Data: 0E E0 71 45 01 D1 20 22 0A E0 20 4D 14 35 A9 42 ... -- CPU_WriteMem(356 bytes @ 0x20000400)  returns 0x164 (0003ms, 1957ms total)
T4C10 1025:431 JLINK_WriteReg(R0, 0x08000C00)  returns 0x00 (0000ms, 1957ms total)
T4C10 1025:431 JLINK_WriteReg(R1, 0x00000400)  returns 0x00 (0000ms, 1957ms total)
T4C10 1025:431 JLINK_WriteReg(R2, 0x20000164)  returns 0x00 (0000ms, 1957ms total)
T4C10 1025:431 JLINK_WriteReg(R3, 0x00000000)  returns 0x00 (0000ms, 1957ms total)
T4C10 1025:431 JLINK_WriteReg(R4, 0x00000000)  returns 0x00 (0000ms, 1957ms total)
T4C10 1025:431 JLINK_WriteReg(R5, 0x00000000)  returns 0x00 (0000ms, 1957ms total)
T4C10 1025:431 JLINK_WriteReg(R6, 0x00000000)  returns 0x00 (0000ms, 1957ms total)
T4C10 1025:431 JLINK_WriteReg(R7, 0x00000000)  returns 0x00 (0000ms, 1957ms total)
T4C10 1025:431 JLINK_WriteReg(R8, 0x00000000)  returns 0x00 (0000ms, 1957ms total)
T4C10 1025:431 JLINK_WriteReg(R9, 0x20000160)  returns 0x00 (0000ms, 1957ms total)
T4C10 1025:431 JLINK_WriteReg(R10, 0x00000000)  returns 0x00 (0000ms, 1957ms total)
T4C10 1025:431 JLINK_WriteReg(R11, 0x00000000)  returns 0x00 (0000ms, 1957ms total)
T4C10 1025:431 JLINK_WriteReg(R12, 0x00000000)  returns 0x00 (0000ms, 1957ms total)
T4C10 1025:431 JLINK_WriteReg(R13 (SP), 0x20001000)  returns 0x00 (0000ms, 1957ms total)
T4C10 1025:431 JLINK_WriteReg(R14, 0x20000001)  returns 0x00 (0000ms, 1957ms total)
T4C10 1025:431 JLINK_WriteReg(R15 (PC), 0x200000F4)  returns 0x00 (0000ms, 1957ms total)
T4C10 1025:431 JLINK_WriteReg(XPSR, 0x01000000)  returns 0x00 (0000ms, 1957ms total)
T4C10 1025:431 JLINK_WriteReg(MSP, 0x20001000)  returns 0x00 (0000ms, 1957ms total)
T4C10 1025:431 JLINK_WriteReg(PSP, 0x20001000)  returns 0x00 (0000ms, 1957ms total)
T4C10 1025:431 JLINK_WriteReg(CFBP, 0x00000000)  returns 0x00 (0000ms, 1957ms total)
T4C10 1025:431 JLINK_SetBPEx(Addr = 0x20000000, Type = 0xFFFFFFF2)  returns 0x00000008 (0000ms, 1957ms total)
T4C10 1025:431 JLINK_Go() -- CPU_ReadMem(4 bytes @ 0xE0001000) (0002ms, 1959ms total)
T4C10 1025:433 JLINK_IsHalted()  returns FALSE (0001ms, 1960ms total)
T4C10 1025:439 JLINK_IsHalted()  returns FALSE (0000ms, 1959ms total)
T4C10 1025:444 JLINK_IsHalted()  returns FALSE (0000ms, 1959ms total)
T4C10 1025:446 JLINK_IsHalted()  returns FALSE (0000ms, 1959ms total)
T4C10 1025:451 JLINK_IsHalted()  returns FALSE (0000ms, 1959ms total)
T4C10 1025:453 JLINK_IsHalted()  returns FALSE (0000ms, 1959ms total)
T4C10 1025:458 JLINK_IsHalted()  returns FALSE (0000ms, 1959ms total)
T4C10 1025:460 JLINK_IsHalted()  returns FALSE (0000ms, 1959ms total)
T4C10 1025:462 JLINK_IsHalted()  returns FALSE (0000ms, 1959ms total)
T4C10 1025:493 JLINK_IsHalted() -- CPU_ReadMem(2 bytes @ 0x20000000)  returns TRUE (0003ms, 1962ms total)
T4C10 1025:496 JLINK_ReadReg(R15 (PC))  returns 0x20000000 (0000ms, 1959ms total)
T4C10 1025:496 JLINK_ClrBPEx(BPHandle = 0x00000008)  returns 0x00 (0000ms, 1959ms total)
T4C10 1025:496 JLINK_ReadReg(R0)  returns 0x00000000 (0000ms, 1959ms total)
T4C10 1025:497 JLINK_WriteMem(0x20000164, 0x029C Bytes, ...) - Data: 0E 01 06 E0 21 F0 04 01 01 60 20 68 01 68 41 F0 ... -- CPU_WriteMem(668 bytes @ 0x20000164)  returns 0x29C (0005ms, 1964ms total)
T4C10 1025:502 JLINK_WriteMem(0x20000400, 0x0164 Bytes, ...) - Data: 28 00 00 20 34 00 00 20 1D 48 08 B5 81 69 41 F0 ... -- CPU_WriteMem(356 bytes @ 0x20000400)  returns 0x164 (0003ms, 1967ms total)
T4C10 1025:505 JLINK_WriteReg(R0, 0x08001000)  returns 0x00 (0000ms, 1967ms total)
T4C10 1025:505 JLINK_WriteReg(R1, 0x00000400)  returns 0x00 (0000ms, 1967ms total)
T4C10 1025:505 JLINK_WriteReg(R2, 0x20000164)  returns 0x00 (0000ms, 1967ms total)
T4C10 1025:505 JLINK_WriteReg(R3, 0x00000000)  returns 0x00 (0000ms, 1967ms total)
T4C10 1025:505 JLINK_WriteReg(R4, 0x00000000)  returns 0x00 (0000ms, 1967ms total)
T4C10 1025:505 JLINK_WriteReg(R5, 0x00000000)  returns 0x00 (0000ms, 1967ms total)
T4C10 1025:505 JLINK_WriteReg(R6, 0x00000000)  returns 0x00 (0000ms, 1967ms total)
T4C10 1025:505 JLINK_WriteReg(R7, 0x00000000)  returns 0x00 (0000ms, 1967ms total)
T4C10 1025:505 JLINK_WriteReg(R8, 0x00000000)  returns 0x00 (0000ms, 1967ms total)
T4C10 1025:505 JLINK_WriteReg(R9, 0x20000160)  returns 0x00 (0000ms, 1967ms total)
T4C10 1025:505 JLINK_WriteReg(R10, 0x00000000)  returns 0x00 (0000ms, 1967ms total)
T4C10 1025:505 JLINK_WriteReg(R11, 0x00000000)  returns 0x00 (0000ms, 1967ms total)
T4C10 1025:505 JLINK_WriteReg(R12, 0x00000000)  returns 0x00 (0000ms, 1967ms total)
T4C10 1025:505 JLINK_WriteReg(R13 (SP), 0x20001000)  returns 0x00 (0000ms, 1967ms total)
T4C10 1025:505 JLINK_WriteReg(R14, 0x20000001)  returns 0x00 (0000ms, 1967ms total)
T4C10 1025:505 JLINK_WriteReg(R15 (PC), 0x200000F4)  returns 0x00 (0000ms, 1967ms total)
T4C10 1025:505 JLINK_WriteReg(XPSR, 0x01000000)  returns 0x00 (0000ms, 1967ms total)
T4C10 1025:505 JLINK_WriteReg(MSP, 0x20001000)  returns 0x00 (0000ms, 1967ms total)
T4C10 1025:505 JLINK_WriteReg(PSP, 0x20001000)  returns 0x00 (0000ms, 1967ms total)
T4C10 1025:505 JLINK_WriteReg(CFBP, 0x00000000)  returns 0x00 (0000ms, 1967ms total)
T4C10 1025:505 JLINK_SetBPEx(Addr = 0x20000000, Type = 0xFFFFFFF2)  returns 0x00000009 (0000ms, 1967ms total)
T4C10 1025:505 JLINK_Go() -- CPU_ReadMem(4 bytes @ 0xE0001000) (0002ms, 1969ms total)
T4C10 1025:507 JLINK_IsHalted()  returns FALSE (0001ms, 1970ms total)
T4C10 1025:549 JLINK_IsHalted()  returns FALSE (0000ms, 1969ms total)
T4C10 1025:551 JLINK_IsHalted()  returns FALSE (0000ms, 1969ms total)
T4C10 1025:553 JLINK_IsHalted()  returns FALSE (0000ms, 1969ms total)
T4C10 1025:555 JLINK_IsHalted() -- CPU_ReadMem(2 bytes @ 0x20000000)  returns TRUE (0003ms, 1972ms total)
T4C10 1025:558 JLINK_ReadReg(R15 (PC))  returns 0x20000000 (0000ms, 1969ms total)
T4C10 1025:558 JLINK_ClrBPEx(BPHandle = 0x00000009)  returns 0x00 (0000ms, 1969ms total)
T4C10 1025:558 JLINK_ReadReg(R0)  returns 0x00000000 (0000ms, 1969ms total)
T4C10 1025:559 JLINK_WriteMem(0x20000164, 0x029C Bytes, ...) - Data: F1 F1 48 43 01 E0 1A 49 48 43 61 68 49 02 03 D4 ... -- CPU_WriteMem(668 bytes @ 0x20000164)  returns 0x29C (0004ms, 1973ms total)
T4C10 1025:563 JLINK_WriteMem(0x20000400, 0x0164 Bytes, ...) - Data: E3 FD 00 20 C4 E7 00 00 00 20 02 40 00 10 02 40 ... -- CPU_WriteMem(356 bytes @ 0x20000400)  returns 0x164 (0003ms, 1976ms total)
T4C10 1025:566 JLINK_WriteReg(R0, 0x08001400)  returns 0x00 (0000ms, 1976ms total)
T4C10 1025:566 JLINK_WriteReg(R1, 0x00000400)  returns 0x00 (0000ms, 1976ms total)
T4C10 1025:566 JLINK_WriteReg(R2, 0x20000164)  returns 0x00 (0000ms, 1976ms total)
T4C10 1025:566 JLINK_WriteReg(R3, 0x00000000)  returns 0x00 (0000ms, 1976ms total)
T4C10 1025:566 JLINK_WriteReg(R4, 0x00000000)  returns 0x00 (0000ms, 1976ms total)
T4C10 1025:566 JLINK_WriteReg(R5, 0x00000000)  returns 0x00 (0000ms, 1976ms total)
T4C10 1025:566 JLINK_WriteReg(R6, 0x00000000)  returns 0x00 (0000ms, 1976ms total)
T4C10 1025:566 JLINK_WriteReg(R7, 0x00000000)  returns 0x00 (0000ms, 1976ms total)
T4C10 1025:566 JLINK_WriteReg(R8, 0x00000000)  returns 0x00 (0000ms, 1976ms total)
T4C10 1025:566 JLINK_WriteReg(R9, 0x20000160)  returns 0x00 (0000ms, 1976ms total)
T4C10 1025:566 JLINK_WriteReg(R10, 0x00000000)  returns 0x00 (0000ms, 1976ms total)
T4C10 1025:566 JLINK_WriteReg(R11, 0x00000000)  returns 0x00 (0000ms, 1976ms total)
T4C10 1025:566 JLINK_WriteReg(R12, 0x00000000)  returns 0x00 (0000ms, 1976ms total)
T4C10 1025:566 JLINK_WriteReg(R13 (SP), 0x20001000)  returns 0x00 (0000ms, 1976ms total)
T4C10 1025:566 JLINK_WriteReg(R14, 0x20000001)  returns 0x00 (0000ms, 1976ms total)
T4C10 1025:566 JLINK_WriteReg(R15 (PC), 0x200000F4)  returns 0x00 (0000ms, 1976ms total)
T4C10 1025:566 JLINK_WriteReg(XPSR, 0x01000000)  returns 0x00 (0000ms, 1976ms total)
T4C10 1025:566 JLINK_WriteReg(MSP, 0x20001000)  returns 0x00 (0000ms, 1976ms total)
T4C10 1025:566 JLINK_WriteReg(PSP, 0x20001000)  returns 0x00 (0000ms, 1976ms total)
T4C10 1025:566 JLINK_WriteReg(CFBP, 0x00000000)  returns 0x00 (0000ms, 1976ms total)
T4C10 1025:566 JLINK_SetBPEx(Addr = 0x20000000, Type = 0xFFFFFFF2)  returns 0x0000000A (0000ms, 1976ms total)
T4C10 1025:566 JLINK_Go() -- CPU_ReadMem(4 bytes @ 0xE0001000) (0002ms, 1978ms total)
T4C10 1025:568 JLINK_IsHalted()  returns FALSE (0001ms, 1979ms total)
T4C10 1025:571 JLINK_IsHalted()  returns FALSE (0000ms, 1978ms total)
T4C10 1025:573 JLINK_IsHalted()  returns FALSE (0000ms, 1978ms total)
T4C10 1025:575 JLINK_IsHalted()  returns FALSE (0000ms, 1978ms total)
T4C10 1025:577 JLINK_IsHalted()  returns FALSE (0000ms, 1978ms total)
T4C10 1025:579 JLINK_IsHalted()  returns FALSE (0000ms, 1978ms total)
T4C10 1025:581 JLINK_IsHalted()  returns FALSE (0000ms, 1978ms total)
T4C10 1025:583 JLINK_IsHalted()  returns FALSE (0000ms, 1978ms total)
T4C10 1025:585 JLINK_IsHalted()  returns FALSE (0000ms, 1978ms total)
T4C10 1025:587 JLINK_IsHalted()  returns FALSE (0000ms, 1978ms total)
T4C10 1025:591 JLINK_IsHalted()  returns FALSE (0000ms, 1978ms total)
T4C10 1025:593 JLINK_IsHalted()  returns FALSE (0000ms, 1978ms total)
T4C10 1025:595 JLINK_IsHalted()  returns FALSE (0000ms, 1978ms total)
T4C10 1025:597 JLINK_IsHalted()  returns FALSE (0000ms, 1978ms total)
T4C10 1025:599 JLINK_IsHalted()  returns FALSE (0000ms, 1978ms total)
T4C10 1025:601 JLINK_IsHalted()  returns FALSE (0000ms, 1978ms total)
T4C10 1025:603 JLINK_IsHalted()  returns FALSE (0000ms, 1978ms total)
T4C10 1025:605 JLINK_IsHalted()  returns FALSE (0000ms, 1978ms total)
T4C10 1025:608 JLINK_IsHalted()  returns FALSE (0000ms, 1978ms total)
T4C10 1025:610 JLINK_IsHalted()  returns FALSE (0000ms, 1978ms total)
T4C10 1025:612 JLINK_IsHalted()  returns FALSE (0000ms, 1978ms total)
T4C10 1025:614 JLINK_IsHalted()  returns FALSE (0000ms, 1978ms total)
T4C10 1025:616 JLINK_IsHalted() -- CPU_ReadMem(2 bytes @ 0x20000000)  returns TRUE (0003ms, 1981ms total)
T4C10 1025:619 JLINK_ReadReg(R15 (PC))  returns 0x20000000 (0000ms, 1978ms total)
T4C10 1025:619 JLINK_ClrBPEx(BPHandle = 0x0000000A)  returns 0x00 (0000ms, 1978ms total)
T4C10 1025:619 JLINK_ReadReg(R0)  returns 0x00000000 (0000ms, 1978ms total)
T4C10 1025:620 JLINK_WriteMem(0x20000164, 0x029C Bytes, ...) - Data: 80 1B 64 28 F0 D8 28 68 80 03 F7 D4 20 78 94 4E ... -- CPU_WriteMem(668 bytes @ 0x20000164)  returns 0x29C (0005ms, 1983ms total)
T4C10 1025:625 JLINK_WriteMem(0x20000400, 0x0164 Bytes, ...) - Data: BD E8 30 40 08 47 11 F0 60 0F 3F D0 93 06 3D D5 ... -- CPU_WriteMem(356 bytes @ 0x20000400)  returns 0x164 (0003ms, 1986ms total)
T4C10 1025:628 JLINK_WriteReg(R0, 0x08001800)  returns 0x00 (0000ms, 1986ms total)
T4C10 1025:628 JLINK_WriteReg(R1, 0x00000400)  returns 0x00 (0000ms, 1986ms total)
T4C10 1025:628 JLINK_WriteReg(R2, 0x20000164)  returns 0x00 (0000ms, 1986ms total)
T4C10 1025:628 JLINK_WriteReg(R3, 0x00000000)  returns 0x00 (0000ms, 1986ms total)
T4C10 1025:628 JLINK_WriteReg(R4, 0x00000000)  returns 0x00 (0000ms, 1986ms total)
T4C10 1025:628 JLINK_WriteReg(R5, 0x00000000)  returns 0x00 (0000ms, 1986ms total)
T4C10 1025:628 JLINK_WriteReg(R6, 0x00000000)  returns 0x00 (0000ms, 1986ms total)
T4C10 1025:628 JLINK_WriteReg(R7, 0x00000000)  returns 0x00 (0000ms, 1986ms total)
T4C10 1025:628 JLINK_WriteReg(R8, 0x00000000)  returns 0x00 (0000ms, 1986ms total)
T4C10 1025:628 JLINK_WriteReg(R9, 0x20000160)  returns 0x00 (0000ms, 1986ms total)
T4C10 1025:628 JLINK_WriteReg(R10, 0x00000000)  returns 0x00 (0000ms, 1986ms total)
T4C10 1025:628 JLINK_WriteReg(R11, 0x00000000)  returns 0x00 (0000ms, 1986ms total)
T4C10 1025:628 JLINK_WriteReg(R12, 0x00000000)  returns 0x00 (0000ms, 1986ms total)
T4C10 1025:628 JLINK_WriteReg(R13 (SP), 0x20001000)  returns 0x00 (0000ms, 1986ms total)
T4C10 1025:628 JLINK_WriteReg(R14, 0x20000001)  returns 0x00 (0000ms, 1986ms total)
T4C10 1025:628 JLINK_WriteReg(R15 (PC), 0x200000F4)  returns 0x00 (0000ms, 1986ms total)
T4C10 1025:628 JLINK_WriteReg(XPSR, 0x01000000)  returns 0x00 (0000ms, 1986ms total)
T4C10 1025:629 JLINK_WriteReg(MSP, 0x20001000)  returns 0x00 (0000ms, 1987ms total)
T4C10 1025:629 JLINK_WriteReg(PSP, 0x20001000)  returns 0x00 (0000ms, 1987ms total)
T4C10 1025:629 JLINK_WriteReg(CFBP, 0x00000000)  returns 0x00 (0000ms, 1987ms total)
T4C10 1025:629 JLINK_SetBPEx(Addr = 0x20000000, Type = 0xFFFFFFF2)  returns 0x0000000B (0000ms, 1987ms total)
T4C10 1025:629 JLINK_Go() -- CPU_ReadMem(4 bytes @ 0xE0001000) (0002ms, 1989ms total)
T4C10 1025:631 JLINK_IsHalted()  returns FALSE (0000ms, 1989ms total)
T4C10 1025:633 JLINK_IsHalted()  returns FALSE (0000ms, 1989ms total)
T4C10 1025:635 JLINK_IsHalted()  returns FALSE (0000ms, 1989ms total)
T4C10 1025:637 JLINK_IsHalted()  returns FALSE (0000ms, 1989ms total)
T4C10 1025:639 JLINK_IsHalted()  returns FALSE (0000ms, 1989ms total)
T4C10 1025:641 JLINK_IsHalted()  returns FALSE (0000ms, 1989ms total)
T4C10 1025:643 JLINK_IsHalted()  returns FALSE (0000ms, 1989ms total)
T4C10 1025:645 JLINK_IsHalted()  returns FALSE (0000ms, 1989ms total)
T4C10 1025:647 JLINK_IsHalted()  returns FALSE (0000ms, 1989ms total)
T4C10 1025:649 JLINK_IsHalted()  returns FALSE (0000ms, 1989ms total)
T4C10 1025:651 JLINK_IsHalted()  returns FALSE (0000ms, 1989ms total)
T4C10 1025:653 JLINK_IsHalted()  returns FALSE (0000ms, 1989ms total)
T4C10 1025:655 JLINK_IsHalted()  returns FALSE (0000ms, 1989ms total)
T4C10 1025:657 JLINK_IsHalted()  returns FALSE (0000ms, 1989ms total)
T4C10 1025:659 JLINK_IsHalted()  returns FALSE (0000ms, 1989ms total)
T4C10 1025:661 JLINK_IsHalted()  returns FALSE (0000ms, 1989ms total)
T4C10 1025:663 JLINK_IsHalted()  returns FALSE (0000ms, 1989ms total)
T4C10 1025:665 JLINK_IsHalted()  returns FALSE (0000ms, 1989ms total)
T4C10 1025:670 JLINK_IsHalted()  returns FALSE (0000ms, 1989ms total)
T4C10 1025:672 JLINK_IsHalted()  returns FALSE (0000ms, 1989ms total)
T4C10 1025:674 JLINK_IsHalted()  returns FALSE (0000ms, 1989ms total)
T4C10 1025:676 JLINK_IsHalted()  returns FALSE (0000ms, 1989ms total)
T4C10 1025:678 JLINK_IsHalted() -- CPU_ReadMem(2 bytes @ 0x20000000)  returns TRUE (0003ms, 1992ms total)
T4C10 1025:681 JLINK_ReadReg(R15 (PC))  returns 0x20000000 (0000ms, 1989ms total)
T4C10 1025:681 JLINK_ClrBPEx(BPHandle = 0x0000000B)  returns 0x00 (0000ms, 1989ms total)
T4C10 1025:681 JLINK_ReadReg(R0)  returns 0x00000000 (0000ms, 1989ms total)
T4C10 1025:683 JLINK_WriteMem(0x20000164, 0x029C Bytes, ...) - Data: 0F FA 00 22 11 46 23 20 FF F7 98 FB 23 20 FF F7 ... -- CPU_WriteMem(668 bytes @ 0x20000164)  returns 0x29C (0005ms, 1994ms total)
T4C10 1025:688 JLINK_WriteMem(0x20000400, 0x0164 Bytes, ...) - Data: 20 77 20 68 80 69 10 F4 40 7F 20 46 02 D0 FF F7 ... -- CPU_WriteMem(356 bytes @ 0x20000400)  returns 0x164 (0003ms, 1997ms total)
T4C10 1025:691 JLINK_WriteReg(R0, 0x08001C00)  returns 0x00 (0000ms, 1997ms total)
T4C10 1025:691 JLINK_WriteReg(R1, 0x00000400)  returns 0x00 (0000ms, 1997ms total)
T4C10 1025:691 JLINK_WriteReg(R2, 0x20000164)  returns 0x00 (0000ms, 1997ms total)
T4C10 1025:691 JLINK_WriteReg(R3, 0x00000000)  returns 0x00 (0000ms, 1997ms total)
T4C10 1025:691 JLINK_WriteReg(R4, 0x00000000)  returns 0x00 (0000ms, 1997ms total)
T4C10 1025:691 JLINK_WriteReg(R5, 0x00000000)  returns 0x00 (0000ms, 1997ms total)
T4C10 1025:691 JLINK_WriteReg(R6, 0x00000000)  returns 0x00 (0000ms, 1997ms total)
T4C10 1025:691 JLINK_WriteReg(R7, 0x00000000)  returns 0x00 (0000ms, 1997ms total)
T4C10 1025:691 JLINK_WriteReg(R8, 0x00000000)  returns 0x00 (0000ms, 1997ms total)
T4C10 1025:691 JLINK_WriteReg(R9, 0x20000160)  returns 0x00 (0000ms, 1997ms total)
T4C10 1025:691 JLINK_WriteReg(R10, 0x00000000)  returns 0x00 (0000ms, 1997ms total)
T4C10 1025:691 JLINK_WriteReg(R11, 0x00000000)  returns 0x00 (0000ms, 1997ms total)
T4C10 1025:691 JLINK_WriteReg(R12, 0x00000000)  returns 0x00 (0000ms, 1997ms total)
T4C10 1025:691 JLINK_WriteReg(R13 (SP), 0x20001000)  returns 0x00 (0000ms, 1997ms total)
T4C10 1025:691 JLINK_WriteReg(R14, 0x20000001)  returns 0x00 (0001ms, 1998ms total)
T4C10 1025:692 JLINK_WriteReg(R15 (PC), 0x200000F4)  returns 0x00 (0000ms, 1998ms total)
T4C10 1025:692 JLINK_WriteReg(XPSR, 0x01000000)  returns 0x00 (0000ms, 1998ms total)
T4C10 1025:692 JLINK_WriteReg(MSP, 0x20001000)  returns 0x00 (0000ms, 1998ms total)
T4C10 1025:692 JLINK_WriteReg(PSP, 0x20001000)  returns 0x00 (0000ms, 1998ms total)
T4C10 1025:692 JLINK_WriteReg(CFBP, 0x00000000)  returns 0x00 (0000ms, 1998ms total)
T4C10 1025:692 JLINK_SetBPEx(Addr = 0x20000000, Type = 0xFFFFFFF2)  returns 0x0000000C (0000ms, 1998ms total)
T4C10 1025:692 JLINK_Go() -- CPU_ReadMem(4 bytes @ 0xE0001000) (0002ms, 2000ms total)
T4C10 1025:694 JLINK_IsHalted()  returns FALSE (0001ms, 2001ms total)
T4C10 1025:697 JLINK_IsHalted()  returns FALSE (0000ms, 2000ms total)
T4C10 1025:699 JLINK_IsHalted()  returns FALSE (0000ms, 2000ms total)
T4C10 1025:706 JLINK_IsHalted()  returns FALSE (0000ms, 2000ms total)
T4C10 1025:708 JLINK_IsHalted()  returns FALSE (0000ms, 2000ms total)
T4C10 1025:710 JLINK_IsHalted()  returns FALSE (0000ms, 2000ms total)
T4C10 1025:712 JLINK_IsHalted()  returns FALSE (0000ms, 2000ms total)
T4C10 1025:714 JLINK_IsHalted()  returns FALSE (0000ms, 2000ms total)
T4C10 1025:716 JLINK_IsHalted()  returns FALSE (0000ms, 2000ms total)
T4C10 1025:718 JLINK_IsHalted()  returns FALSE (0000ms, 2000ms total)
T4C10 1025:720 JLINK_IsHalted()  returns FALSE (0000ms, 2000ms total)
T4C10 1025:722 JLINK_IsHalted()  returns FALSE (0000ms, 2000ms total)
T4C10 1025:724 JLINK_IsHalted()  returns FALSE (0000ms, 2000ms total)
T4C10 1025:726 JLINK_IsHalted()  returns FALSE (0000ms, 2000ms total)
T4C10 1025:728 JLINK_IsHalted()  returns FALSE (0000ms, 2000ms total)
T4C10 1025:734 JLINK_IsHalted()  returns FALSE (0000ms, 2000ms total)
T4C10 1025:736 JLINK_IsHalted()  returns FALSE (0000ms, 2000ms total)
T4C10 1025:738 JLINK_IsHalted()  returns FALSE (0000ms, 2000ms total)
T4C10 1025:740 JLINK_IsHalted()  returns FALSE (0000ms, 2000ms total)
T4C10 1025:742 JLINK_IsHalted() -- CPU_ReadMem(2 bytes @ 0x20000000)  returns TRUE (0003ms, 2003ms total)
T4C10 1025:745 JLINK_ReadReg(R15 (PC))  returns 0x20000000 (0001ms, 2001ms total)
T4C10 1025:746 JLINK_ClrBPEx(BPHandle = 0x0000000C)  returns 0x00 (0000ms, 2001ms total)
T4C10 1025:746 JLINK_ReadReg(R0)  returns 0x00000000 (0000ms, 2001ms total)
T4C10 1025:747 JLINK_WriteMem(0x20000164, 0x029C Bytes, ...) - Data: 84 F8 3D 00 42 B1 04 2A 18 D0 08 2A 2A D0 0C 2A ... -- CPU_WriteMem(668 bytes @ 0x20000164)  returns 0x29C (0005ms, 2006ms total)
T4C10 1025:752 JLINK_WriteMem(0x20000400, 0x0164 Bytes, ...) - Data: 3C 00 00 20 00 00 00 20 00 10 01 40 84 01 00 20 ... -- CPU_WriteMem(356 bytes @ 0x20000400)  returns 0x164 (0003ms, 2009ms total)
T4C10 1025:755 JLINK_WriteReg(R0, 0x08002000)  returns 0x00 (0000ms, 2009ms total)
T4C10 1025:755 JLINK_WriteReg(R1, 0x00000400)  returns 0x00 (0000ms, 2009ms total)
T4C10 1025:755 JLINK_WriteReg(R2, 0x20000164)  returns 0x00 (0000ms, 2009ms total)
T4C10 1025:755 JLINK_WriteReg(R3, 0x00000000)  returns 0x00 (0000ms, 2009ms total)
T4C10 1025:755 JLINK_WriteReg(R4, 0x00000000)  returns 0x00 (0001ms, 2010ms total)
T4C10 1025:756 JLINK_WriteReg(R5, 0x00000000)  returns 0x00 (0000ms, 2010ms total)
T4C10 1025:756 JLINK_WriteReg(R6, 0x00000000)  returns 0x00 (0000ms, 2010ms total)
T4C10 1025:756 JLINK_WriteReg(R7, 0x00000000)  returns 0x00 (0000ms, 2010ms total)
T4C10 1025:756 JLINK_WriteReg(R8, 0x00000000)  returns 0x00 (0000ms, 2010ms total)
T4C10 1025:756 JLINK_WriteReg(R9, 0x20000160)  returns 0x00 (0000ms, 2010ms total)
T4C10 1025:756 JLINK_WriteReg(R10, 0x00000000)  returns 0x00 (0000ms, 2010ms total)
T4C10 1025:756 JLINK_WriteReg(R11, 0x00000000)  returns 0x00 (0000ms, 2010ms total)
T4C10 1025:756 JLINK_WriteReg(R12, 0x00000000)  returns 0x00 (0000ms, 2010ms total)
T4C10 1025:756 JLINK_WriteReg(R13 (SP), 0x20001000)  returns 0x00 (0000ms, 2010ms total)
